
**** 02/11/12 13:05:10 *********** Evaluation PSpice (Nov 1999) **************

 * C:\Documents and Settings\Marwin\Mes documents\Etudes\ECAM 3\Club Robotique\Partie lctronique\Balise IR\Emetteur\Diode emettrice.s


 ****     CIRCUIT DESCRIPTION


******************************************************************************




* Schematics Version 9.1 - Web Update 1
* Wed Feb 08 11:47:55 2012



** Analysis setup **
.tran 100ns 1000ns
.OP 


* From [PSPICE NETLIST] section of pspiceev.ini:
.lib "C:\Program Files\OrCAD_Demo\PSpice\UserLib\MaBibli.lib"
.lib "nom.lib"

.INC "Diode emettrice.net"

**** INCLUDING "Diode emettrice.net" ****
* Schematics Netlist *



R_R15         $N_0002 $N_0001  100  
V_V5         $N_0002 0 5V
R_R16         0 $N_0003  1k  
D_D53         $N_0004 $N_0005 D1N4148 
D_D51         $N_0006 $N_0007 D1N4148 
D_D47         $N_0008 $N_0009 D1N4148 
D_D54         $N_0010 $N_0004 D1N4148 
D_D52         $N_0011 $N_0006 D1N4148 
D_D48         $N_0012 $N_0008 D1N4148 
D_D46         $N_0013 $N_0014 D1N4148 
D_D42         $N_0015 $N_0016 D1N4148 
D_D45         $N_0014 $N_0017 D1N4148 
D_D43         $N_0018 $N_0015 D1N4148 
D_D44         $N_0019 $N_0013 D1N4148 
D_D49         $N_0020 $N_0012 D1N4148 
D_D50         $N_0021 $N_0011 D1N4148 
D_D55         $N_0022 $N_0010 D1N4148 
D_D60         $N_0023 $N_0018 D1N4148 
D_D59         $N_0023 $N_0019 D1N4148 
D_D58         $N_0023 $N_0020 D1N4148 
D_D56         $N_0023 $N_0021 D1N4148 
D_D57         $N_0023 $N_0022 D1N4148 
V_V6         $N_0023 0 9V
X_Q5         $N_0024 $N_0001 $N_0003 Q2N6059
R_R17         $N_0024 $N_0005  26  
R_R18         $N_0024 $N_0007  26  
R_R19         $N_0024 $N_0009  26  
R_R20         $N_0024 $N_0017  26  
D_D41         $N_0016 $N_0025 D1N4148 
R_R21         $N_0024 $N_0025  60  

**** RESUMING "Diode emettrice.cir" ****
.INC "Diode emettrice.als"



**** INCLUDING "Diode emettrice.als" ****
* Schematics Aliases *

.ALIASES
R_R15           R15(1=$N_0002 2=$N_0001 )
V_V5            V5(+=$N_0002 -=0 )
R_R16           R16(1=0 2=$N_0003 )
D_D53           D53(1=$N_0004 2=$N_0005 )
D_D51           D51(1=$N_0006 2=$N_0007 )
D_D47           D47(1=$N_0008 2=$N_0009 )
D_D54           D54(1=$N_0010 2=$N_0004 )
D_D52           D52(1=$N_0011 2=$N_0006 )
D_D48           D48(1=$N_0012 2=$N_0008 )
D_D46           D46(1=$N_0013 2=$N_0014 )
D_D42           D42(1=$N_0015 2=$N_0016 )
D_D45           D45(1=$N_0014 2=$N_0017 )
D_D43           D43(1=$N_0018 2=$N_0015 )
D_D44           D44(1=$N_0019 2=$N_0013 )
D_D49           D49(1=$N_0020 2=$N_0012 )
D_D50           D50(1=$N_0021 2=$N_0011 )
D_D55           D55(1=$N_0022 2=$N_0010 )
D_D60           D60(1=$N_0023 2=$N_0018 )
D_D59           D59(1=$N_0023 2=$N_0019 )
D_D58           D58(1=$N_0023 2=$N_0020 )
D_D56           D56(1=$N_0023 2=$N_0021 )
D_D57           D57(1=$N_0023 2=$N_0022 )
V_V6            V6(+=$N_0023 -=0 )
X_Q5            Q5(c=$N_0024 b=$N_0001 e=$N_0003 )
R_R17           R17(1=$N_0024 2=$N_0005 )
R_R18           R18(1=$N_0024 2=$N_0007 )
R_R19           R19(1=$N_0024 2=$N_0009 )
R_R20           R20(1=$N_0024 2=$N_0017 )
D_D41           D41(1=$N_0016 2=$N_0025 )
R_R21           R21(1=$N_0024 2=$N_0025 )
.ENDALIASES


**** RESUMING "Diode emettrice.cir" ****
.probe


.END

**** 02/11/12 13:05:10 *********** Evaluation PSpice (Nov 1999) **************

 * C:\Documents and Settings\Marwin\Mes documents\Etudes\ECAM 3\Club Robotique\Partie lctronique\Balise IR\Emetteur\Diode emettrice.s


 ****     Diode MODEL PARAMETERS


******************************************************************************




               D1N4148         X_Q5.Dmodel     
          IS    2.682000E-09    5.325300E-12 
           N    1.836           3.4748       
         ISR    1.565000E-09  100.000000E-12 
         IKF     .04417                      
          BV  100             120            
         IBV  100.000000E-06    1.000000E-06 
          RS     .5664          1.000000E-03 
          TT   11.540000E-09    5.000000E-09 
         CJO    4.000000E-12    1.000000E-12 
          VJ     .5              .75         
           M     .3333           .3333       


**** 02/11/12 13:05:10 *********** Evaluation PSpice (Nov 1999) **************

 * C:\Documents and Settings\Marwin\Mes documents\Etudes\ECAM 3\Club Robotique\Partie lctronique\Balise IR\Emetteur\Diode emettrice.s


 ****     BJT MODEL PARAMETERS


******************************************************************************




               X_Q5.Q1model    X_Q5.Q2model    
               NPN             NPN             
          IS    1.501000E-12    1.501000E-12 
          BF  772.1           772.1          
          NF    1               1            
         VAF  100             100            
         IKF     .1298           .1298       
         ISE  163.800000E-12  163.800000E-12 
          NE    1.998           1.998        
          BR  499.5           499.5          
          NR    1               1            
         VAR  100             100            
         IKR   19.98           19.98         
         ISC    1.536000E-12    1.536000E-12 
          NC    2.997           2.997        
          NK     .5077           .5077       
          RB    1.101           1.101        
          RC     .1498           .1498       
         CJE  316.600000E-12  316.600000E-12 
         VJE     .436            .436        
         MJE     .2878           .2878       
         CJC  189.300000E-12                 
         VJC     .6244           .6244       
         MJC     .1866           .1866       
        XCJC     .9              .9          
          TF   16.416000E-09   16.416000E-09 
         XTF    1               1            
         VTF   10              10            
         ITF     .01             .01         
          TR   13.837000E-09   13.837000E-09 
          CN    2.42            2.42         
           D     .87             .87         


**** 02/11/12 13:05:10 *********** Evaluation PSpice (Nov 1999) **************

 * C:\Documents and Settings\Marwin\Mes documents\Etudes\ECAM 3\Club Robotique\Partie lctronique\Balise IR\Emetteur\Diode emettrice.s


 ****     SMALL SIGNAL BIAS SOLUTION       TEMPERATURE =   27.000 DEG C


******************************************************************************



 NODE   VOLTAGE     NODE   VOLTAGE     NODE   VOLTAGE     NODE   VOLTAGE


(X_Q5.4)    4.4249 ($N_0001)    4.9873                   ($N_0002)    5.0000    

($N_0003)    4.2142                   ($N_0004)    7.2119                       

($N_0005)    6.6158                   ($N_0006)    7.2119                       

($N_0007)    6.6158                   ($N_0008)    7.2119                       

($N_0009)    6.6158                   ($N_0010)    7.8079                       

($N_0011)    7.8079                   ($N_0012)    7.8079                       

($N_0013)    7.8079                   ($N_0014)    7.2119                       

($N_0015)    7.8193                   ($N_0016)    7.2290                       

($N_0017)    6.6158                   ($N_0018)    8.4097                       

($N_0019)    8.4040                   ($N_0020)    8.4040                       

($N_0021)    8.4040                   ($N_0022)    8.4040                       

($N_0023)    9.0000                   ($N_0024)    6.5941                       

($N_0025)    6.6386                   




    VOLTAGE SOURCE CURRENTS
    NAME         CURRENT

    V_V5        -1.266E-04
    V_V6        -4.088E-03

    TOTAL POWER DISSIPATION   3.74E-02  WATTS


**** 02/11/12 13:05:10 *********** Evaluation PSpice (Nov 1999) **************

 * C:\Documents and Settings\Marwin\Mes documents\Etudes\ECAM 3\Club Robotique\Partie lctronique\Balise IR\Emetteur\Diode emettrice.s


 ****     OPERATING POINT INFORMATION      TEMPERATURE =   27.000 DEG C


******************************************************************************






**** DIODES


NAME         D_D53       D_D51       D_D47       D_D54       D_D52     
MODEL        D1N4148     D1N4148     D1N4148     D1N4148     D1N4148   
ID           8.36E-04    8.36E-04    8.36E-04    8.36E-04    8.36E-04 
VD           5.96E-01    5.96E-01    5.96E-01    5.96E-01    5.96E-01 
REQ          5.68E+01    5.68E+01    5.68E+01    5.68E+01    5.68E+01 
CAP          2.11E-10    2.11E-10    2.11E-10    2.11E-10    2.11E-10 

NAME         D_D48       D_D46       D_D42       D_D45       D_D43     
MODEL        D1N4148     D1N4148     D1N4148     D1N4148     D1N4148   
ID           8.36E-04    8.36E-04    7.42E-04    8.36E-04    7.42E-04 
VD           5.96E-01    5.96E-01    5.90E-01    5.96E-01    5.90E-01 
REQ          5.68E+01    5.68E+01    6.39E+01    5.68E+01    6.39E+01 
CAP          2.11E-10    2.11E-10    1.88E-10    2.11E-10    1.88E-10 

NAME         D_D44       D_D49       D_D50       D_D55       D_D60     
MODEL        D1N4148     D1N4148     D1N4148     D1N4148     D1N4148   
ID           8.36E-04    8.36E-04    8.36E-04    8.36E-04    7.42E-04 
VD           5.96E-01    5.96E-01    5.96E-01    5.96E-01    5.90E-01 
REQ          5.68E+01    5.68E+01    5.68E+01    5.68E+01    6.39E+01 
CAP          2.11E-10    2.11E-10    2.11E-10    2.11E-10    1.88E-10 

NAME         D_D59       D_D58       D_D56       D_D57       D_D41     
MODEL        D1N4148     D1N4148     D1N4148     D1N4148     D1N4148   
ID           8.36E-04    8.36E-04    8.36E-04    8.36E-04    7.42E-04 
VD           5.96E-01    5.96E-01    5.96E-01    5.96E-01    5.90E-01 
REQ          5.68E+01    5.68E+01    5.68E+01    5.68E+01    6.39E+01 
CAP          2.11E-10    2.11E-10    2.11E-10    2.11E-10    1.88E-10 

NAME         X_Q5.D1               
MODEL        X_Q5.Dmodel           
ID          -1.66E-10             
VD          -2.38E+00             
REQ          7.78E+10             
CAP          6.21E-13             


**** BIPOLAR JUNCTION TRANSISTORS


NAME         X_Q5.Q1                 X_Q5.Q2               
MODEL        X_Q5.Q1model            X_Q5.Q2model          
IB           1.41E-05                9.42E-09             
IC           4.09E-03                5.24E-09             
VBE          5.62E-01                2.11E-01             
VBC         -1.61E+00               -2.17E+00             
VCE          2.17E+00                2.38E+00             
BETADC       2.89E+02                5.56E-01             
GM           1.53E-01                2.02E-07             
RPI          2.65E+03                5.39E+06             
RX           1.10E+00                1.11E+00             
RO           2.47E+04                1.91E+10             
CBE          3.56E-09                3.79E-10             
CBC          1.34E-10                1.38E-20             
CJS          0.00E+00                0.00E+00             
BETAAC       4.05E+02                1.09E+00             
CBX/CBX2     1.49E-11                0.00E+00             
FT/FT2       6.58E+06                8.49E+01             


**** 02/11/12 13:05:10 *********** Evaluation PSpice (Nov 1999) **************

 * C:\Documents and Settings\Marwin\Mes documents\Etudes\ECAM 3\Club Robotique\Partie lctronique\Balise IR\Emetteur\Diode emettrice.s


 ****     INITIAL TRANSIENT SOLUTION       TEMPERATURE =   27.000 DEG C


******************************************************************************



 NODE   VOLTAGE     NODE   VOLTAGE     NODE   VOLTAGE     NODE   VOLTAGE


(X_Q5.4)    4.4249 ($N_0001)    4.9873                   ($N_0002)    5.0000    

($N_0003)    4.2142                   ($N_0004)    7.2119                       

($N_0005)    6.6158                   ($N_0006)    7.2119                       

($N_0007)    6.6158                   ($N_0008)    7.2119                       

($N_0009)    6.6158                   ($N_0010)    7.8079                       

($N_0011)    7.8079                   ($N_0012)    7.8079                       

($N_0013)    7.8079                   ($N_0014)    7.2119                       

($N_0015)    7.8193                   ($N_0016)    7.2290                       

($N_0017)    6.6158                   ($N_0018)    8.4097                       

($N_0019)    8.4040                   ($N_0020)    8.4040                       

($N_0021)    8.4040                   ($N_0022)    8.4040                       

($N_0023)    9.0000                   ($N_0024)    6.5941                       

($N_0025)    6.6386                   




    VOLTAGE SOURCE CURRENTS
    NAME         CURRENT

    V_V5        -1.266E-04
    V_V6        -4.088E-03

    TOTAL POWER DISSIPATION   3.74E-02  WATTS



          JOB CONCLUDED

          TOTAL JOB TIME             .05
